Circuit: * C:\Users\Johnb\OneDrive\Documents\GitHub\AMP_PCBv1\LTSpice Diff Simulator\DiffSimulator.asc

Direct Newton iteration failed to find .op point.  (Use ".option noopiter" to skip.)
Starting Gmin stepping
Gmin = 10
Gmin = 1.07374
Gmin = 0.115292
Gmin = 0.0123794
Gmin = 0.00132923
vernier = 0.5
vernier = 0.25
vernier = 0.125
Gmin = 0.000941093
vernier = 0.0625
vernier = 0.03125
vernier = 0.015625
vernier = 0.0078125
Gmin = 0.000957362
vernier = 0.00390625
vernier = 0.00195313
vernier = 0.000976563
vernier = 0.000488281
Gmin = 0
Gmin = 0
Gmin stepping succeeded in finding the operating point.

Semiconductor Device Operating Points:
                        --- Diodes ---
Name:    d:u2:14     d:u2:13     d:u2:n6     d:u2:n5     d:u2:n4
Model:    u2:dy       u2:dy      u2:din      u2:din      u2:din
Id:     -8.79e-04   -2.53e-11    1.30e+05    1.30e+05    1.30e+05
Vd:     -5.04e+01   -2.53e+01    2.00e+00    2.00e+00    2.00e+00
Req:     2.94e+01    1.00e+12    1.99e-07    1.99e-07    1.99e-07
CAP:     0.00e+00    0.00e+00    0.00e+00    0.00e+00    0.00e+00

Name:    d:u2:n3     d:u2:n2     d:u2:n1     d:u2:12     d:u2:11
Model:   u2:din      u2:den      u2:den       u2:dx       u2:dx
Id:      1.30e+05    1.26e-04    1.26e-04   -2.44e-11    8.79e-04
Vd:      2.00e+00    2.00e+00    2.00e+00   -2.44e+01    7.11e-01
Req:     1.99e-07    2.06e+02    2.06e+02    1.00e+12    2.94e+01
CAP:     0.00e+00    0.00e+00    0.00e+00    0.00e+00    0.00e+00

Name:    d:u2:10     d:u2:9      d:u2:8      d:u2:7      d:u2:6
Model:    u2:dx       u2:dx       u2:dx       u2:dx       u2:dx
Id:     -4.75e-12   -6.45e-12   -1.30e-11   -1.30e-11   -2.40e-11
Vd:     -4.75e+00   -6.45e+00   -1.30e+01   -1.30e+01   -2.40e+01
Req:     1.00e+12    1.00e+12    1.00e+12    1.00e+12    1.00e+12
CAP:     0.00e+00    0.00e+00    0.00e+00    0.00e+00    0.00e+00

Name:    d:u2:5      d:u2:4      d:u2:3      d:u2:2      d:u2:1
Model:    u2:dx       u2:dx       u2:dx       u2:dx       u2:dx
Id:      3.65e-05   -3.50e-12   -1.30e-12    1.99e-14   -1.94e-14
Vd:      6.29e-01   -3.50e+00   -1.30e+00    1.89e-02   -1.89e-02
Req:     7.08e+02    1.00e+12    1.00e+12    9.26e+11    9.82e+11
CAP:     0.00e+00    0.00e+00    0.00e+00    0.00e+00    0.00e+00

                        --- Bipolar Transistors ---
Name:     q:u2:2      q:u2:1
Model:     u2:qx       u2:qx
Ib:       1.55e-09    8.27e-10
Ic:       6.51e-01    3.49e-01
Vbe:      9.42e-01    9.26e-01
Vbc:     -1.06e+01   -1.07e+01
Vce:      1.16e+01    1.16e+01
BetaDC:   4.20e+08    4.22e+08
Gm:       2.52e+01    1.35e+01
Rpi:      1.66e+07    3.09e+07
Rx:       0.00e+00    0.00e+00
Ro:       0.00e+00    0.00e+00
Cbe:      0.00e+00    0.00e+00
Cbc:      0.00e+00    0.00e+00
Cjs:      0.00e+00    0.00e+00
BetaAC:   4.17e+08    4.17e+08
Cbx:      0.00e+00    0.00e+00
Ft:       0.00e+00    0.00e+00



Date: Sat Oct 10 08:45:17 2020
Total elapsed time: 0.170 seconds.

tnom = 27
temp = 27
method = trap
totiter = 1685
traniter = 0
tranpoints = 0
accept = 0
rejected = 0
matrix size = 72
fillins = 71
solver = Normal
Thread vector: 6.3/3.6[2] 0.0/0.0[0] 1.5/2.5[1] 0.3/1.4[1]  2592/500
Matrix Compiler1: 6.08 KB object code size
Matrix Compiler2: 6.74 KB object code size  0.6/1.8/[0.6]

